 ****** HSPICE -- L-2016.06-SP1 win64 (Aug 24 2016) ******                      
  Copyright (c) 1986 - 2019 by Synopsys, Inc. All Rights Reserved.              
  This software and the associated documentation are proprietary
  to Synopsys, Inc. This software may only be used in accordance
  with the terms and conditions of a written license agreement with
  Synopsys, Inc. All other use, reproduction, or distribution of
  this software is strictly prohibited.
  Input File: DFlipFlop_2.sp                                                    
  Command line options: C:\synopsys\Hspice_L-2016.06-SP1\WIN64\hspice.com -i DFlipFlop_2.sp -o C:\Users\NIkan\Desktop\FUOG\Microelectornic Circuits 1\HSpice\MC_Sim02_MohammadDoostiLakhani\Section-B\DFlipFlop_2.lis
  lic:  
  lic: FLEXlm: v11.2.1 
  lic: USER:   NIkan                HOSTNAME: NIkronic 
  lic: HOSTID: "d85de2e29c47"       PID:      3544 
  lic: Using FLEXlm license file: 
  lic: 27000@NIkronic 
  lic: Checkout 1 hspice 
  lic: License/Maintenance for hspice will expire on 30-dec-2020/2019.2019 
  lic: 1(in_use)/99(total) FLOATING license(s) on SERVER 27000@NIkronic 
  lic:   
1****** HSPICE -- L-2016.06-SP1 win64 (Aug 24 2016) ******                      
 ******  
 

 ****** circuit name directory
 circuit number to circuit name directory
   number circuitname                     definition         multiplier
        0 main circuit
        1 x0.                             inv                1.00 
        2 x1.                             inv                1.00 
        3 x4.                             inv                1.00 
        4 x2.                             inv                1.00 
        5 x3.                             inv                1.00 
  **info** (DFlipFlop_2.sp:13) DC voltage reset to initial transient source value in source 0:vclk. new dc=0.1800D+01
 

  
      
 **info** set option symb=1 internally to help for convergence.
 *****************************************************************
 ******  option summary
 ******
 runlvl  = 3         bypass  = 2.0000    
  Opening plot unit= 79
 file=C:\Users\NIkan\Desktop\FUOG\Microelectornic Circuits 1\HSpice\MC_Sim02_MohammadDoostiLakhani\Section-B\DFlipFlop_2.pa0

 **info** dc convergence successful at Newton-Raphson method 
 ******  
 

 ****** operating point information tnom=  25.000 temp=  25.000 ******
 ****** operating point status is all       simulation time is     0.     
    node    =voltage      node    =voltage      node    =voltage

 +0:a       = 899.4517m 0:b       = 899.4517m 0:c       = 899.4517m
 +0:clk     =   1.8000  0:d       =  30.0183n 0:e       = 899.4449m
 +0:nclk    =   0.      0:notd    =   1.8000  0:notq    = 899.4517m
 +0:q       = 899.4520m 0:vdd     =   1.8000 


 **** voltage sources

 subckt                                              
 element  0:vclk     0:vdd      0:vnclk    0:vnotd   
  volts      1.8000     1.8000     0.         1.8000 
  current    0.      -309.8589u    0.         0.     
  power      0.       557.7460u    0.         0.     

     total voltage source power dissipation=  557.7460u       watts




 **** mosfets


 subckt                                                                    
 element  0:mp1      0:mn1      0:mp2      0:mn2      0:mp3      0:mn3     
 model    0:pmos     0:nmos     0:pmos     0:nmos     0:pmos     0:nmos    
 region       Cutoff     Cutoff     Linear     Linear     Linear     Linear
  id       2.727e-26    8.0037p   -3.3445p   -6.4560p  743.8896a    1.4360f
  ibs        0.         0.         0.         0.         0.         0.     
  ibd        0.         0.         0.         0.         0.         0.     
  vgs        1.8000   -30.0183n -899.4517m  900.5483m -899.4517m  900.5483m
  vds      899.4517m  899.4517m  -24.6208n  -24.6208n    5.4763p    5.4763p
  vbs        1.8000   -30.0183n  900.5483m -899.4517m  900.5483m -899.4517m
  vth     -697.5201m  465.8920m -729.6778m  659.5457m -729.6778m  659.5457m
  vdsat    -39.1008m   38.7234m -157.7797m  193.9825m -157.7797m  193.9825m
  vod        1.5981  -465.8920m -169.7740m  241.0026m -169.7739m  241.0026m
  beta     932.1076u    1.1557m  891.1343u    1.2295m  891.1343u    1.2295m
  gam eff  485.8365m  564.1219m  485.8365m  552.2963m  485.8365m  552.2963m
  gm       7.884e-25  216.1123p   19.5352p   27.4227p    4.3451f    6.0995f
  gds      3.614e-26    5.7246p  135.8384u  262.2157u  135.8383u  262.2158u
  gmb      2.463e-25   64.1190p    4.9343p    4.7696p    1.0975f    1.0609f
  cdtot      2.2882f  961.1135a    2.9751f    1.0512f    2.5053f    1.2131f
  cgtot      2.5499f  924.0248a    3.5855f    1.3297f    3.5855f    1.3297f
  cstot      2.1314f    1.0554f    2.5053f    1.2131f    2.9751f    1.0512f
  cbtot      2.7416f    1.4563f    2.7839f    1.3045f    2.7839f    1.3045f
  cgs        1.0430f  363.2367a    2.0300f  617.5254a    1.5757f  685.6790a
  cgd        1.0694f  372.7080a    1.5757f  685.6791a    2.0300f  617.5254a



 subckt                         x0         x0         x1         x1        
 element  0:mp4      0:mn4      1:m1       1:m2       2:m1       2:m2      
 model    0:pmos     0:nmos     0:nmos     0:pmos     0:nmos     0:pmos    
 region       Cutoff     Cutoff     Linear     Cutoff   Saturati   Saturati
  id         0.         0.        30.0060p  -14.8034p   77.4647u  -77.4647u
  ibs        0.         0.         0.         0.         0.         0.     
  ibd        0.         0.         0.         0.         0.         0.     
  vgs      900.5551m -899.4449m    1.8000     0.       899.4517m -900.5483m
  vds        6.7512u    6.7512u   30.0183n   -1.8000   899.4517m -900.5483m
  vbs      900.5551m -899.4449m    0.         0.         0.         0.     
  vth     -729.6775m  659.5445m  473.4386m -468.9068m  465.8920m -478.9267m
  vdsat    -39.1139m   43.3820m  559.4742m  -38.8683m  262.9314m -324.0218m
  vod        1.6302    -1.5590     1.3266   468.9068m  433.5597m -421.6216m
  beta     919.2602u    1.2168m    1.1190m    1.0565m    1.2201m  970.7511u
  gam eff  485.8365m  552.2964m  564.1219m  514.0892m  564.1219m  514.0892m
  gm         0.       1.425e-28    8.2118p  389.5557p  262.8040u  298.0738u
  gds      2.915e-25  7.140e-25  999.5908u    7.5198p   15.0723u   14.4972u
  gmb        0.         0.         3.5342p  128.5324p   53.2426u   91.2711u
  cdtot      2.2882f  961.1136a    1.3782f    2.1314f  959.6479a    2.2830f
  cgtot      2.5568f  920.4698a    1.3299f    2.5501f    1.2480f    3.4018f
  cstot      2.2882f  961.1140a    1.0940f    2.6213f    1.2981f    3.2612f
  cbtot      2.8949f    1.3534f    1.5484f    3.0900f    1.4208f    3.1626f
  cgs        1.0428f  368.2696a  636.7753a    1.0442f  820.5132a    2.2740f
  cgd        1.0799f  372.7958a  649.7009a    1.0532f  370.0974a    1.0439f



 subckt   x4         x4         x2         x2         x3         x3        
 element  3:m1       3:m2       4:m1       4:m2       5:m1       5:m2      
 model    0:nmos     0:pmos     0:nmos     0:pmos     0:nmos     0:pmos    
 region     Saturati   Saturati   Saturati   Saturati   Saturati   Saturati
  id        77.4647u  -77.4647u   77.4647u  -77.4647u   77.4647u  -77.4647u
  ibs        0.         0.         0.         0.         0.         0.     
  ibd        0.         0.         0.         0.         0.         0.     
  vgs      899.4517m -900.5483m  899.4517m -900.5483m  899.4520m -900.5480m
  vds      899.4517m -900.5483m  899.4520m -900.5480m  899.4449m -900.5551m
  vbs        0.         0.         0.         0.         0.         0.     
  vth      465.8920m -478.9267m  465.8919m -478.9267m  465.8920m -478.9267m
  vdsat    262.9313m -324.0218m  262.9313m -324.0218m  262.9315m -324.0216m
  vod      433.5597m -421.6216m  433.5597m -421.6216m  433.5600m -421.6213m
  beta       1.2201m  970.7511u    1.2201m  970.7511u    1.2201m  970.7512u
  gam eff  564.1219m  514.0892m  564.1219m  514.0892m  564.1219m  514.0892m
  gm       262.8040u  298.0738u  262.8040u  298.0738u  262.8039u  298.0740u
  gds       15.0723u   14.4972u   15.0723u   14.4972u   15.0723u   14.4971u
  gmb       53.2426u   91.2711u   53.2426u   91.2711u   53.2426u   91.2711u
  cdtot    959.6479a    2.2830f  959.6479a    2.2830f  959.6483a    2.2830f
  cgtot      1.2480f    3.4018f    1.2480f    3.4018f    1.2480f    3.4018f
  cstot      1.2981f    3.2612f    1.2981f    3.2612f    1.2981f    3.2612f
  cbtot      1.4208f    3.1626f    1.4208f    3.1626f    1.4208f    3.1626f
  cgs      820.5132a    2.2740f  820.5132a    2.2740f  820.5132a    2.2740f
  cgd      370.0974a    1.0439f  370.0974a    1.0439f  370.0974a    1.0439f



 ******
 

 ****** transient analysis tnom=  25.000 temp=  25.000 ******
 tpdr=  98.4974p  targ=  15.2585n   trig=  15.1600n
 tpdf=  78.2789p  targ= 138.2789p   trig=  60.0000p

          ***** job concluded
 ******  
 

 ****** job statistics summary tnom=  25.000 temp=  25.000 ******

  ******  HSPICE Threads Information  ******

  Command Line Threads Count :     1
  Available CPU Count        :     4
  Actual Threads Count       :     1


  ******  Circuit Statistics  ******
  # nodes       =      12 # elements   =      22
  # resistors   =       0 # capacitors =       0 # inductors   =       0
  # mutual_inds =       0 # vccs       =       0 # vcvs        =       0
  # cccs        =       0 # ccvs       =       0 # volt_srcs   =       4
  # curr_srcs   =       0 # diodes     =       0 # bjts        =       0
  # jfets       =       0 # mosfets    =      18 # U elements  =       0
  # T elements  =       0 # W elements =       0 # B elements  =       0
  # S elements  =       0 # P elements =       0 # va device   =       0
  # vector_srcs =       0 # N elements =       0


  ******  Runtime Statistics (seconds)  ******

  analysis           time    # points   tot. iter  conv.iter
  op point           0.01           1          14
  transient          0.02        3001         435         179 rev=        10
  readin             0.01
  errchk             0.00
  setup              0.00
  output             0.00


           peak memory used         48.82 megabytes
           total cpu time            0.04 seconds
           total elapsed time        0.30 seconds
           job started at     19:08:56 06/07/2019
           job ended   at     19:08:56 06/07/2019


  lic: Release hspice token(s) 
 lic: total license checkout elapse time:        0.20(s)
